
T2044 000:535 SEGGER J-Link V4.90 Log File (0000ms, 0262ms total)
T2044 000:535 DLL Compiled: Jul 28 2014 10:35:20 (0001ms, 0263ms total)
T2044 000:535 Logging started @ 2015-12-17 17:57 (0001ms, 0263ms total)
T2044 000:536 JLINK_SetWarnOutHandler(...) (0000ms, 0263ms total)
T2044 000:536 JLINK_OpenEx(...)
Firmware: J-Link ARM V8 compiled Nov 28 2014 13:44:46
Hardware: V8.00
S/N: 286370559
Feature(s): RDI,FlashDL,FlashBP,JFlash  returns O.K. (0262ms, 0525ms total)
T2044 000:798 JLINK_SetErrorOutHandler(...) (0000ms, 0525ms total)
T2044 000:798 JLINK_ExecCommand("ProjectFile = "C:\Users\Administrator\Desktop\RTU\MDK-ARM\JLinkSettings.ini"", ...)  returns 0x00 (0000ms, 0525ms total)
T2044 000:798 JLINK_ExecCommand("Device = STM32L051C8", ...)Device "STM32L051C8" selected (66 KB flash, 8 KB RAM).  returns 0x00 (0001ms, 0526ms total)
T2044 000:799 JLINK_ExecCommand("DisableConnectionTimeout", ...)  returns 0x01 (0000ms, 0526ms total)
T2044 000:799 JLINK_GetHardwareVersion()  returns 0x13880 (0000ms, 0526ms total)
T2044 000:799 JLINK_GetDLLVersion()  returns 49000 (0000ms, 0526ms total)
T2044 000:799 JLINK_GetFirmwareString(...) (0000ms, 0526ms total)
T2044 000:800 JLINK_GetDLLVersion()  returns 49000 (0000ms, 0526ms total)
T2044 000:800 JLINK_GetCompileDateTime() (0000ms, 0526ms total)
T2044 000:800 JLINK_GetFirmwareString(...) (0000ms, 0526ms total)
T2044 000:801 JLINK_GetHardwareVersion()  returns 0x13880 (0000ms, 0526ms total)
T2044 000:801 JLINK_TIF_Select(JLINKARM_TIF_SWD)  returns 0x00 (0001ms, 0527ms total)
T2044 000:802 JLINK_SetSpeed(2000) (0000ms, 0527ms total)
T2044 000:802 JLINK_GetId() >0x108 TIF>Found SWD-DP with ID 0x0BC11477 >0x0D TIF> >0x28 TIF> >0x0D TIF> >0x28 TIF> >0x0D TIF> >0x21 TIF> >0x0D TIF> >0x28 TIF> >0x0D TIF> >0x28 TIF> >0x0D TIF> >0x28 TIF> >0x0D TIF> >0x21 TIF> >0x0D TIF> >0x21 TIF> >0x0D TIF> >0x28 TIF> >0x0D TIF> >0x21 TIF> >0x0D TIF> >0x21 TIF> >0x0D TIF> >0x28 TIF> >0x0D TIF> >0x28 TIF> >0x0D TIF> >0x28 TIF> >0x0D TIF> >0x21 TIF> >0x0D TIF> >0x21 TIF> >0x0D TIF> >0x28 TIF> >0x0D TIF> >0x28 TIF> >0x108 TIF>Found SWD-DP with ID 0x0BC11477
 >0x0D TIF> >0x21 TIF> >0x0D TIF> >0x28 TIF> >0x0D TIF> >0x28 TIF> >0x0D TIF> >0x21 TIF> >0x0D TIF> >0x28 TIF> >0x0D TIF> >0x21 TIF> >0x0D TIF> >0x21 TIF> >0x0D TIF> >0x21 TIF> >0x0D TIF> >0x28 TIF> >0x0D TIF> >0x28 TIF> >0x0D TIF> >0x28 TIF> >0x0D TIF> >0x21 TIF> >0x0D TIF> >0x21 TIF> >0x0D TIF> >0x21 TIF> >0x0D TIF> >0x28 TIF> >0x0D TIF> >0x28 TIF> >0x0D TIF> >0x21 TIF> >0x0D TIF> >0x28 TIF> >0x0D TIF> >0x28 TIF> >0x0D TIF> >0x28 TIF> >0x0D TIF> >0x21 TIF> >0x0D TIF> >0x21 TIF> >0x0D TIF> >0x28 TIF>
 >0x0D TIF> >0x21 TIF> >0x0D TIF> >0x21 TIF>Found Cortex-M0 r0p1, Little endian. -- CPU_WriteMem(4 bytes @ 0xE0002000) -- CPU_ReadMem(4 bytes @ 0xE000EDF0) -- CPU_ReadMem(4 bytes @ 0xE0002000)FPUnit: 4 code (BP) slots and 0 literal slots -- CPU_ReadMem(4 bytes @ 0xE000EDFC) -- CPU_ReadMem(4 bytes @ 0xE0001000) -- CPU_WriteMem(4 bytes @ 0xE0001000) -- CPU_ReadMem(4 bytes @ 0xE00FF018) >0x0D TIF> >0x21 TIF>  returns 0x0BC11477 (0042ms, 0569ms total)
T2044 000:844 JLINK_GetDLLVersion()  returns 49000 (0000ms, 0569ms total)
T2044 000:844 JLINK_CORE_GetFound()  returns 0x60000FF (0000ms, 0569ms total)
T2044 000:844 JLINK_ReadMem (0xE00FF000, 0x0020 Bytes, ...) -- CPU is running -- CPU_ReadMem(32 bytes @ 0xE00FF000) - Data: 03 F0 F0 FF 03 20 F0 FF 03 30 F0 FF 00 00 00 00 ...  returns 0x00 (0001ms, 0570ms total)
T2044 000:845 JLINK_ReadMem (0xE000EFF0, 0x0010 Bytes, ...) -- CPU is running -- CPU_ReadMem(16 bytes @ 0xE000EFF0) - Data: 0D 00 00 00 E0 00 00 00 05 00 00 00 B1 00 00 00  returns 0x00 (0001ms, 0571ms total)
T2044 000:846 JLINK_ReadMem (0xE000EFD0, 0x0020 Bytes, ...) -- CPU is running -- CPU_ReadMem(32 bytes @ 0xE000EFD0) - Data: 04 00 00 00 00 00 00 00 00 00 00 00 00 00 00 00 ...  returns 0x00 (0001ms, 0572ms total)
T2044 000:847 JLINK_ReadMem (0xE0001FF0, 0x0010 Bytes, ...) -- CPU is running -- CPU_ReadMem(16 bytes @ 0xE0001FF0) - Data: 0D 00 00 00 E0 00 00 00 05 00 00 00 B1 00 00 00  returns 0x00 (0001ms, 0573ms total)
T2044 000:848 JLINK_ReadMem (0xE0001FD0, 0x0020 Bytes, ...) -- CPU is running -- CPU_ReadMem(32 bytes @ 0xE0001FD0) - Data: 04 00 00 00 00 00 00 00 00 00 00 00 00 00 00 00 ...  returns 0x00 (0001ms, 0574ms total)
T2044 000:849 JLINK_ReadMem (0xE0002FF0, 0x0010 Bytes, ...) -- CPU is running -- CPU_ReadMem(16 bytes @ 0xE0002FF0) - Data: 0D 00 00 00 E0 00 00 00 05 00 00 00 B1 00 00 00  returns 0x00 (0000ms, 0574ms total)
T2044 000:849 JLINK_ReadMem (0xE0002FD0, 0x0020 Bytes, ...) -- CPU is running -- CPU_ReadMem(32 bytes @ 0xE0002FD0) - Data: 04 00 00 00 00 00 00 00 00 00 00 00 00 00 00 00 ...  returns 0x00 (0001ms, 0575ms total)
T2044 000:850 JLINK_ReadMemU32(0xE000ED00, 0x0001 Items, ...) -- CPU is running -- CPU_ReadMem(4 bytes @ 0xE000ED00) - Data: 01 C6 0C 41  returns 0x01 (0001ms, 0576ms total)
T2044 000:851 JLINK_SetResetType(JLINKARM_RESET_TYPE_NORMAL)  returns JLINKARM_RESET_TYPE_NORMAL (0000ms, 0576ms total)
T2044 000:851 JLINK_Reset() -- CPU is running -- CPU_WriteMem(4 bytes @ 0xE000EDF0) -- CPU is running -- CPU_WriteMem(4 bytes @ 0xE000EDFC) >0x35 TIF> -- CPU is running -- CPU_WriteMem(4 bytes @ 0xE000ED0C) -- CPU is running -- CPU_ReadMem(4 bytes @ 0xE000EDF0) -- CPU is running -- CPU_ReadMem(4 bytes @ 0xE000EDF0) -- CPU is running -- CPU_WriteMem(4 bytes @ 0xE000EDF0) -- CPU is running -- CPU_WriteMem(4 bytes @ 0xE000EDFC) -- CPU is running -- CPU_ReadMem(4 bytes @ 0xE000EDF0)
 -- CPU_WriteMem(4 bytes @ 0xE0002000) -- CPU_ReadMem(4 bytes @ 0xE000EDFC) -- CPU_ReadMem(4 bytes @ 0xE0001000) -- CPU_WriteMem(4 bytes @ 0xE0001000) (0021ms, 0597ms total)
T2044 000:872 JLINK_ReadReg(R15 (PC))  returns 0x1FF00238 (0000ms, 0597ms total)
T2044 000:872 JLINK_ReadReg(XPSR)  returns 0xF1000000 (0000ms, 0597ms total)
T2044 000:872 JLINK_Halt()  returns 0x00 (0000ms, 0597ms total)
T2044 000:872 JLINK_IsHalted()  returns TRUE (0000ms, 0597ms total)
T2044 000:872 JLINK_ReadMemU32(0xE000EDF0, 0x0001 Items, ...) -- CPU_ReadMem(4 bytes @ 0xE000EDF0) - Data: 03 00 03 01  returns 0x01 (0000ms, 0597ms total)
T2044 000:872 JLINK_WriteU32(0xE000EDF0, 0xA05F0003) -- CPU_WriteMem(4 bytes @ 0xE000EDF0)  returns 0x00 (0001ms, 0598ms total)
T2044 000:873 JLINK_WriteU32(0xE000EDFC, 0x01000000) -- CPU_WriteMem(4 bytes @ 0xE000EDFC)  returns 0x00 (0001ms, 0599ms total)
T2044 000:874 JLINK_GetHWStatus(...)  returns 0x00 (0000ms, 0599ms total)
T2044 000:874 JLINK_GetNumBPUnits(Type = 0xFFFFFF00)  returns 0x04 (0000ms, 0599ms total)
T2044 000:874 JLINK_GetNumBPUnits(Type = 0xF0)  returns 0x2000 (0000ms, 0599ms total)
T2044 000:874 JLINK_GetNumWPUnits()  returns 0x02 (0001ms, 0600ms total)
T2044 000:875 JLINK_GetSpeed()  returns 0x7D0 (0000ms, 0600ms total)
T2044 000:875 JLINK_ReadMemU32(0xE000E004, 0x0001 Items, ...) -- CPU_ReadMem(4 bytes @ 0xE000E004) - Data: 00 00 00 00  returns 0x01 (0001ms, 0601ms total)
T2044 000:876 JLINK_ReadReg(R15 (PC))  returns 0x1FF00238 (0000ms, 0601ms total)
T2044 000:876 JLINK_ReadReg(XPSR)  returns 0xF1000000 (0000ms, 0601ms total)
T2044 000:982 JLINK_SetResetType(JLINKARM_RESET_TYPE_NORMAL)  returns JLINKARM_RESET_TYPE_NORMAL (0000ms, 0601ms total)
T2044 000:982 JLINK_Reset() -- CPU_WriteMem(4 bytes @ 0xE000EDF0) -- CPU_WriteMem(4 bytes @ 0xE000EDFC) >0x35 TIF> -- CPU_WriteMem(4 bytes @ 0xE000ED0C) -- CPU_ReadMem(4 bytes @ 0xE000EDF0) -- CPU_ReadMem(4 bytes @ 0xE000EDF0) -- CPU_WriteMem(4 bytes @ 0xE000EDF0) -- CPU_WriteMem(4 bytes @ 0xE000EDFC) -- CPU is running -- CPU_ReadMem(4 bytes @ 0xE000EDF0) -- CPU_WriteMem(4 bytes @ 0xE0002000) -- CPU_ReadMem(4 bytes @ 0xE000EDFC) -- CPU_ReadMem(4 bytes @ 0xE0001000) -- CPU_WriteMem(4 bytes @ 0xE0001000)
 (0021ms, 0622ms total)
T2044 001:003 JLINK_ReadReg(R15 (PC))  returns 0x1FF00238 (0001ms, 0623ms total)
T2044 001:004 JLINK_ReadReg(XPSR)  returns 0xF1000000 (0000ms, 0623ms total)
T2044 001:014 JLINK_ReadMem (0x1FF00238, 0x003C Bytes, ...) -- CPU_ReadMem(128 bytes @ 0x1FF00200) -- Updating C cache (128 bytes @ 0x1FF00200) -- Read from C cache (60 bytes @ 0x1FF00238) - Data: 00 48 00 47 41 00 F0 1F 1F 21 C9 06 01 22 41 18 ...  returns 0x00 (0002ms, 0625ms total)
T2044 001:252 JLINK_ReadMem (0x40012400, 0x0014 Bytes, ...) -- CPU_ReadMem(20 bytes @ 0x40012400) - Data: 00 00 00 00 00 00 00 00 00 00 00 00 00 00 00 00 ...  returns 0x00 (0001ms, 0626ms total)
T2044 001:253 JLINK_ReadMem (0x40012414, 0x0004 Bytes, ...) -- CPU_ReadMem(4 bytes @ 0x40012414) - Data: 00 00 00 00  returns 0x00 (0001ms, 0627ms total)
T2044 001:254 JLINK_ReadMem (0x40012420, 0x0004 Bytes, ...) -- CPU_ReadMem(4 bytes @ 0x40012420) - Data: 00 00 00 00  returns 0x00 (0000ms, 0627ms total)
T2044 001:254 JLINK_ReadMem (0x40012428, 0x0004 Bytes, ...) -- CPU_ReadMem(4 bytes @ 0x40012428) - Data: 00 00 00 00  returns 0x00 (0001ms, 0628ms total)
T2044 001:255 JLINK_ReadMem (0x40012440, 0x0004 Bytes, ...) -- CPU_ReadMem(4 bytes @ 0x40012440) - Data: 00 00 00 00  returns 0x00 (0001ms, 0629ms total)
T2044 001:256 JLINK_ReadMem (0x400124B4, 0x0004 Bytes, ...) -- CPU_ReadMem(4 bytes @ 0x400124B4) - Data: 00 00 00 00  returns 0x00 (0001ms, 0630ms total)
T2044 001:257 JLINK_ReadMem (0x40012708, 0x0004 Bytes, ...) -- CPU_ReadMem(4 bytes @ 0x40012708) - Data: 00 00 00 00  returns 0x00 (0000ms, 0630ms total)
T2044 001:289 JLINK_ReadMem (0x50000000, 0x0014 Bytes, ...) -- CPU_ReadMem(20 bytes @ 0x50000000) - Data: FF FC FF EB 00 00 00 00 00 00 00 0C 00 00 00 24 ...  returns 0x00 (0001ms, 0631ms total)
T2044 001:290 JLINK_ReadMem (0x50000014, 0x0004 Bytes, ...) -- CPU_ReadMem(4 bytes @ 0x50000014) - Data: 00 00 00 00  returns 0x00 (0001ms, 0632ms total)
T2044 001:291 JLINK_ReadMem (0x5000001C, 0x0008 Bytes, ...) -- CPU_ReadMem(8 bytes @ 0x5000001C) - Data: 00 00 00 00 00 00 00 00  returns 0x00 (0001ms, 0633ms total)
T2044 001:292 JLINK_ReadMem (0x50000024, 0x0004 Bytes, ...) -- CPU_ReadMem(4 bytes @ 0x50000024) - Data: 00 00 00 00  returns 0x00 (0000ms, 0633ms total)
T2044 001:324 JLINK_ReadMem (0x40004800, 0x000C Bytes, ...) -- CPU_ReadMem(12 bytes @ 0x40004800) - Data: 00 00 00 00 00 00 00 00 00 00 00 00  returns 0x00 (0001ms, 0634ms total)
T2044 001:325 JLINK_ReadMem (0x4000480C, 0x0004 Bytes, ...) -- CPU_ReadMem(4 bytes @ 0x4000480C) - Data: 00 00 00 00  returns 0x00 (0000ms, 0634ms total)
T2044 001:325 JLINK_ReadMem (0x4000481C, 0x0004 Bytes, ...) -- CPU_ReadMem(4 bytes @ 0x4000481C) - Data: C0 00 00 00  returns 0x00 (0001ms, 0635ms total)
T2044 001:326 JLINK_ReadMem (0x40004824, 0x0004 Bytes, ...) -- CPU_ReadMem(4 bytes @ 0x40004824) - Data: 00 00 00 00  returns 0x00 (0001ms, 0636ms total)
T2044 001:327 JLINK_ReadMem (0x40004828, 0x0004 Bytes, ...) -- CPU_ReadMem(4 bytes @ 0x40004828) - Data: 00 00 00 00  returns 0x00 (0000ms, 0636ms total)
T2044 002:387 JLINK_ReadMem (0x200003A8, 0x0020 Bytes, ...) -- CPU_ReadMem(128 bytes @ 0x20000380) -- Updating C cache (128 bytes @ 0x20000380) -- Read from C cache (32 bytes @ 0x200003A8) - Data: 00 00 00 00 00 00 00 00 00 00 00 00 00 00 00 00 ...  returns 0x00 (0004ms, 0640ms total)
T2044 002:401 JLINK_ReadMem (0x20000270, 0x0020 Bytes, ...) -- CPU_ReadMem(128 bytes @ 0x20000240) -- Updating C cache (128 bytes @ 0x20000240) -- Read from C cache (32 bytes @ 0x20000270) - Data: 00 00 00 00 00 00 00 00 00 00 00 00 00 00 00 00 ...  returns 0x00 (0002ms, 0642ms total)
T2044 002:404 JLINK_ReadMem (0x20000018, 0x0001 Bytes, ...) -- CPU_ReadMem(64 bytes @ 0x20000000) -- Updating C cache (64 bytes @ 0x20000000) -- Read from C cache (1 bytes @ 0x20000018) - Data: 70  returns 0x00 (0002ms, 0644ms total)
T2044 002:409 JLINK_ReadMem (0x00000000, 0x0004 Bytes, ...) -- CPU_ReadMem(4 bytes @ 0x00000004) -- CPU_ReadMem(64 bytes @ 0x1FF00000) -- Updating C cache (64 bytes @ 0x1FF00000) -- Read from C cache (4 bytes @ 0x1FF00000) - Data: A0 0C 00 20  returns 0x00 (0014ms, 0658ms total)
T2044 002:442 JLINK_ReadMem (0x1FF80078, 0x01AD Bytes, ...) -- CPU_ReadMem(429 bytes @ 0x1FF80078) - Data: AA AA AA AA AA AA AA AA AA AA AA AA AA AA AA AA ...  returns 0x01 (0003ms, 0661ms total)
T2044 002:446 JLINK_ReadMem (0x00000000, 0x01AD Bytes, ...) -- CPU_ReadMem(384 bytes @ 0x1FF00040) -- Updating C cache (384 bytes @ 0x1FF00040) -- Read from C cache (429 bytes @ 0x1FF00000) - Data: A0 0C 00 20 39 02 F0 1F 31 02 F0 1F 31 02 F0 1F ...  returns 0x00 (0005ms, 0666ms total)
T21B8 002:472 JLINK_SetBPEx(Addr = 0x08003FEC, Type = 0xFFFFFFF2)  returns 0x00000001 (0000ms, 0666ms total)
T21B8 002:473 JLINK_Go() -- CPU_WriteMem(4 bytes @ 0xE0002000) -- CPU_WriteMem(4 bytes @ 0xE0002008) -- CPU_WriteMem(4 bytes @ 0xE000200C) -- CPU_WriteMem(4 bytes @ 0xE0002010) -- CPU_WriteMem(4 bytes @ 0xE0002014) -- CPU_WriteMem(4 bytes @ 0xE0001004) (0005ms, 0672ms total)
T21B8 002:579 JLINK_IsHalted()  returns FALSE (0000ms, 0672ms total)
T21B8 002:681 JLINK_IsHalted()  returns FALSE (0000ms, 0672ms total)
T21B8 002:782 JLINK_IsHalted()  returns FALSE (0000ms, 0672ms total)
T21B8 002:883 JLINK_IsHalted()  returns FALSE (0000ms, 0672ms total)
T2044 002:984 JLINK_ReadMem (0x200003A8, 0x0020 Bytes, ...) -- CPU is running -- CPU_ReadMem(32 bytes @ 0x200003A8) - Data: 00 00 00 00 00 00 00 00 00 00 00 00 00 00 00 00 ...  returns 0x00 (0001ms, 0673ms total)
T2044 002:985 JLINK_ReadMem (0x200003A8, 0x0020 Bytes, ...) -- CPU is running -- CPU_ReadMem(32 bytes @ 0x200003A8) - Data: 00 00 00 00 00 00 00 00 00 00 00 00 00 00 00 00 ...  returns 0x00 (0001ms, 0674ms total)
T2044 002:986 JLINK_ReadMem (0x20000270, 0x0020 Bytes, ...) -- CPU is running -- CPU_ReadMem(32 bytes @ 0x20000270) - Data: 00 00 00 00 00 00 00 00 00 00 00 00 00 00 00 00 ...  returns 0x00 (0002ms, 0676ms total)
T2044 002:988 JLINK_ReadMem (0x20000018, 0x0001 Bytes, ...) -- CPU is running -- CPU_ReadMem(1 bytes @ 0x20000018) - Data: 70  returns 0x00 (0000ms, 0676ms total)
T2044 002:988 JLINK_ReadMem (0x00000000, 0x0004 Bytes, ...) -- CPU is running -- CPU_ReadMem(4 bytes @ 0x00000004) -- CPU is running -- CPU_ReadMem(4 bytes @ 0x1FF00000) - Data: A0 0C 00 20  returns 0x00 (0002ms, 0678ms total)
T2044 002:990 JLINK_ReadMem (0x00000000, 0x0004 Bytes, ...) -- CPU is running -- CPU_ReadMem(4 bytes @ 0x1FF00000) - Data: A0 0C 00 20  returns 0x00 (0001ms, 0679ms total)
T2044 002:991 JLINK_ReadMem (0x40012400, 0x0014 Bytes, ...) -- CPU is running -- CPU_ReadMem(20 bytes @ 0x40012400) - Data: 00 00 00 00 00 00 00 00 00 00 00 00 00 00 00 00 ...  returns 0x00 (0001ms, 0680ms total)
T2044 002:992 JLINK_ReadMem (0x40012414, 0x0004 Bytes, ...) -- CPU is running -- CPU_ReadMem(4 bytes @ 0x40012414) - Data: 00 00 00 00  returns 0x00 (0001ms, 0681ms total)
T2044 002:993 JLINK_ReadMem (0x40012420, 0x0004 Bytes, ...) -- CPU is running -- CPU_ReadMem(4 bytes @ 0x40012420) - Data: 00 00 00 00  returns 0x00 (0001ms, 0682ms total)
T2044 002:994 JLINK_ReadMem (0x40012428, 0x0004 Bytes, ...) -- CPU is running -- CPU_ReadMem(4 bytes @ 0x40012428) - Data: 00 00 00 00  returns 0x00 (0000ms, 0682ms total)
T2044 002:994 JLINK_ReadMem (0x40012440, 0x0004 Bytes, ...) -- CPU is running -- CPU_ReadMem(4 bytes @ 0x40012440) - Data: 00 00 00 00  returns 0x00 (0000ms, 0682ms total)
T2044 002:994 JLINK_ReadMem (0x400124B4, 0x0004 Bytes, ...) -- CPU is running -- CPU_ReadMem(4 bytes @ 0x400124B4) - Data: 00 00 00 00  returns 0x00 (0002ms, 0684ms total)
T2044 002:996 JLINK_ReadMem (0x40012708, 0x0004 Bytes, ...) -- CPU is running -- CPU_ReadMem(4 bytes @ 0x40012708) - Data: 00 00 00 00  returns 0x00 (0001ms, 0685ms total)
T2044 002:997 JLINK_ReadMem (0x40004800, 0x000C Bytes, ...) -- CPU is running -- CPU_ReadMem(12 bytes @ 0x40004800) - Data: 00 00 00 00 00 00 00 00 00 00 00 00  returns 0x00 (0001ms, 0686ms total)
T2044 002:998 JLINK_ReadMem (0x4000480C, 0x0004 Bytes, ...) -- CPU is running -- CPU_ReadMem(4 bytes @ 0x4000480C) - Data: 00 00 00 00  returns 0x00 (0001ms, 0687ms total)
T2044 002:999 JLINK_ReadMem (0x4000481C, 0x0004 Bytes, ...) -- CPU is running -- CPU_ReadMem(4 bytes @ 0x4000481C) - Data: C0 00 00 00  returns 0x00 (0000ms, 0687ms total)
T2044 002:999 JLINK_ReadMem (0x40004824, 0x0004 Bytes, ...) -- CPU is running -- CPU_ReadMem(4 bytes @ 0x40004824) - Data: 00 00 00 00  returns 0x00 (0001ms, 0688ms total)
T2044 003:000 JLINK_ReadMem (0x40004828, 0x0004 Bytes, ...) -- CPU is running -- CPU_ReadMem(4 bytes @ 0x40004828) - Data: 00 00 00 00  returns 0x00 (0001ms, 0689ms total)
T2044 003:001 JLINK_ReadMem (0x50000000, 0x0014 Bytes, ...) -- CPU is running -- CPU_ReadMem(20 bytes @ 0x50000000) - Data: AF AA EB EB 00 00 00 00 F0 55 3C 0C 50 AA 14 24 ...  returns 0x00 (0001ms, 0690ms total)
T2044 003:002 JLINK_ReadMem (0x50000014, 0x0004 Bytes, ...) -- CPU is running -- CPU_ReadMem(4 bytes @ 0x50000014) - Data: 00 00 00 00  returns 0x00 (0001ms, 0691ms total)
T2044 003:003 JLINK_ReadMem (0x5000001C, 0x0008 Bytes, ...) -- CPU is running -- CPU_ReadMem(8 bytes @ 0x5000001C) - Data: 00 00 00 00 00 44 00 00  returns 0x00 (0001ms, 0692ms total)
T2044 003:004 JLINK_ReadMem (0x50000024, 0x0004 Bytes, ...) -- CPU is running -- CPU_ReadMem(4 bytes @ 0x50000024) - Data: 40 04 00 00  returns 0x00 (0001ms, 0693ms total)
T21B8 003:005 JLINK_IsHalted()  returns FALSE (0001ms, 0694ms total)
T21B8 003:107 JLINK_IsHalted()  returns FALSE (0001ms, 0694ms total)
T21B8 003:209 JLINK_IsHalted()  returns FALSE (0001ms, 0694ms total)
T21B8 003:310 JLINK_IsHalted()  returns FALSE (0000ms, 0693ms total)
T21B8 003:411 JLINK_IsHalted()  returns FALSE (0001ms, 0694ms total)
T2044 003:513 JLINK_ReadMem (0x200003A8, 0x0020 Bytes, ...) -- CPU is running -- CPU_ReadMem(32 bytes @ 0x200003A8) - Data: 00 00 00 00 00 00 00 00 00 00 00 00 00 00 00 00 ...  returns 0x00 (0001ms, 0694ms total)
T2044 003:514 JLINK_ReadMem (0x200003A8, 0x0020 Bytes, ...) -- CPU is running -- CPU_ReadMem(32 bytes @ 0x200003A8) - Data: 00 00 00 00 00 00 00 00 00 00 00 00 00 00 00 00 ...  returns 0x00 (0001ms, 0695ms total)
T2044 003:515 JLINK_ReadMem (0x20000270, 0x0020 Bytes, ...) -- CPU is running -- CPU_ReadMem(32 bytes @ 0x20000270) - Data: 00 00 00 00 00 00 00 00 00 00 00 00 00 00 00 00 ...  returns 0x00 (0002ms, 0697ms total)
T2044 003:517 JLINK_ReadMem (0x20000018, 0x0001 Bytes, ...) -- CPU is running -- CPU_ReadMem(1 bytes @ 0x20000018) - Data: 70  returns 0x00 (0000ms, 0697ms total)
T2044 003:517 JLINK_ReadMem (0x00000000, 0x0004 Bytes, ...) -- CPU is running -- CPU_ReadMem(4 bytes @ 0x1FF00000) - Data: A0 0C 00 20  returns 0x00 (0001ms, 0698ms total)
T2044 003:518 JLINK_ReadMem (0x00000000, 0x0004 Bytes, ...) -- CPU is running -- CPU_ReadMem(4 bytes @ 0x1FF00000) - Data: A0 0C 00 20  returns 0x00 (0001ms, 0699ms total)
T2044 003:519 JLINK_ReadMem (0x40012400, 0x0014 Bytes, ...) -- CPU is running -- CPU_ReadMem(20 bytes @ 0x40012400) - Data: 00 00 00 00 00 00 00 00 00 00 00 00 00 00 00 00 ...  returns 0x00 (0001ms, 0700ms total)
T2044 003:520 JLINK_ReadMem (0x40012414, 0x0004 Bytes, ...) -- CPU is running -- CPU_ReadMem(4 bytes @ 0x40012414) - Data: 00 00 00 00  returns 0x00 (0001ms, 0701ms total)
T2044 003:521 JLINK_ReadMem (0x40012420, 0x0004 Bytes, ...) -- CPU is running -- CPU_ReadMem(4 bytes @ 0x40012420) - Data: 00 00 00 00  returns 0x00 (0000ms, 0701ms total)
T2044 003:521 JLINK_ReadMem (0x40012428, 0x0004 Bytes, ...) -- CPU is running -- CPU_ReadMem(4 bytes @ 0x40012428) - Data: 00 00 00 00  returns 0x00 (0001ms, 0702ms total)
T2044 003:522 JLINK_ReadMem (0x40012440, 0x0004 Bytes, ...) -- CPU is running -- CPU_ReadMem(4 bytes @ 0x40012440) - Data: 00 00 00 00  returns 0x00 (0001ms, 0703ms total)
T2044 003:523 JLINK_ReadMem (0x400124B4, 0x0004 Bytes, ...) -- CPU is running -- CPU_ReadMem(4 bytes @ 0x400124B4) - Data: 00 00 00 00  returns 0x00 (0001ms, 0704ms total)
T2044 003:524 JLINK_ReadMem (0x40012708, 0x0004 Bytes, ...) -- CPU is running -- CPU_ReadMem(4 bytes @ 0x40012708) - Data: 00 00 00 00  returns 0x00 (0000ms, 0704ms total)
T2044 003:525 JLINK_ReadMem (0x40004800, 0x000C Bytes, ...) -- CPU is running -- CPU_ReadMem(12 bytes @ 0x40004800) - Data: 00 00 00 00 00 00 00 00 00 00 00 00  returns 0x00 (0001ms, 0705ms total)
T2044 003:526 JLINK_ReadMem (0x4000480C, 0x0004 Bytes, ...) -- CPU is running -- CPU_ReadMem(4 bytes @ 0x4000480C) - Data: 00 00 00 00  returns 0x00 (0000ms, 0705ms total)
T2044 003:526 JLINK_ReadMem (0x4000481C, 0x0004 Bytes, ...) -- CPU is running -- CPU_ReadMem(4 bytes @ 0x4000481C) - Data: C0 00 00 00  returns 0x00 (0001ms, 0706ms total)
T2044 003:527 JLINK_ReadMem (0x40004824, 0x0004 Bytes, ...) -- CPU is running -- CPU_ReadMem(4 bytes @ 0x40004824) - Data: 00 00 00 00  returns 0x00 (0001ms, 0707ms total)
T2044 003:528 JLINK_ReadMem (0x40004828, 0x0004 Bytes, ...) -- CPU is running -- CPU_ReadMem(4 bytes @ 0x40004828) - Data: 00 00 00 00  returns 0x00 (0001ms, 0708ms total)
T2044 003:529 JLINK_ReadMem (0x50000000, 0x0014 Bytes, ...) -- CPU is running -- CPU_ReadMem(20 bytes @ 0x50000000) - Data: AF AA EB EB 00 00 00 00 F0 55 3C 0C 50 AA 14 24 ...  returns 0x00 (0001ms, 0709ms total)
T2044 003:530 JLINK_ReadMem (0x50000014, 0x0004 Bytes, ...) -- CPU is running -- CPU_ReadMem(4 bytes @ 0x50000014) - Data: 00 00 00 00  returns 0x00 (0000ms, 0709ms total)
T2044 003:530 JLINK_ReadMem (0x5000001C, 0x0008 Bytes, ...) -- CPU is running -- CPU_ReadMem(8 bytes @ 0x5000001C) - Data: 00 00 00 00 00 44 00 00  returns 0x00 (0001ms, 0710ms total)
T2044 003:531 JLINK_ReadMem (0x50000024, 0x0004 Bytes, ...) -- CPU is running -- CPU_ReadMem(4 bytes @ 0x50000024) - Data: 40 04 00 00  returns 0x00 (0001ms, 0711ms total)
T21B8 003:532 JLINK_IsHalted()  returns FALSE (0001ms, 0712ms total)
T21B8 003:634 JLINK_IsHalted()  returns FALSE (0001ms, 0712ms total)
T21B8 003:735 JLINK_IsHalted()  returns FALSE (0000ms, 0711ms total)
T21B8 003:837 JLINK_IsHalted()  returns FALSE (0000ms, 0711ms total)
T21B8 003:938 JLINK_IsHalted()  returns FALSE (0000ms, 0711ms total)
T2044 004:039 JLINK_ReadMem (0x200003A8, 0x0020 Bytes, ...) -- CPU is running -- CPU_ReadMem(32 bytes @ 0x200003A8) - Data: 00 00 00 00 00 00 00 00 00 00 00 00 00 00 00 00 ...  returns 0x00 (0002ms, 0713ms total)
T2044 004:041 JLINK_ReadMem (0x200003A8, 0x0020 Bytes, ...) -- CPU is running -- CPU_ReadMem(32 bytes @ 0x200003A8) - Data: 00 00 00 00 00 00 00 00 00 00 00 00 00 00 00 00 ...  returns 0x00 (0001ms, 0714ms total)
T2044 004:042 JLINK_ReadMem (0x20000270, 0x0020 Bytes, ...) -- CPU is running -- CPU_ReadMem(32 bytes @ 0x20000270) - Data: 00 00 00 00 00 00 00 00 00 00 00 00 00 00 00 00 ...  returns 0x00 (0000ms, 0714ms total)
T2044 004:042 JLINK_ReadMem (0x20000018, 0x0001 Bytes, ...) -- CPU is running -- CPU_ReadMem(1 bytes @ 0x20000018) - Data: 70  returns 0x00 (0001ms, 0715ms total)
T2044 004:043 JLINK_ReadMem (0x00000000, 0x0004 Bytes, ...) -- CPU is running -- CPU_ReadMem(4 bytes @ 0x1FF00000) - Data: A0 0C 00 20  returns 0x00 (0001ms, 0716ms total)
T2044 004:044 JLINK_ReadMem (0x00000000, 0x0004 Bytes, ...) -- CPU is running -- CPU_ReadMem(4 bytes @ 0x1FF00000) - Data: A0 0C 00 20  returns 0x00 (0001ms, 0717ms total)
T2044 004:045 JLINK_ReadMem (0x40012400, 0x0014 Bytes, ...) -- CPU is running -- CPU_ReadMem(20 bytes @ 0x40012400) - Data: 00 00 00 00 00 00 00 00 00 00 00 00 00 00 00 00 ...  returns 0x00 (0002ms, 0719ms total)
T2044 004:047 JLINK_ReadMem (0x40012414, 0x0004 Bytes, ...) -- CPU is running -- CPU_ReadMem(4 bytes @ 0x40012414) - Data: 00 00 00 00  returns 0x00 (0000ms, 0719ms total)
T2044 004:047 JLINK_ReadMem (0x40012420, 0x0004 Bytes, ...) -- CPU is running -- CPU_ReadMem(4 bytes @ 0x40012420) - Data: 00 00 00 00  returns 0x00 (0001ms, 0720ms total)
T2044 004:048 JLINK_ReadMem (0x40012428, 0x0004 Bytes, ...) -- CPU is running -- CPU_ReadMem(4 bytes @ 0x40012428) - Data: 00 00 00 00  returns 0x00 (0000ms, 0720ms total)
T2044 004:048 JLINK_ReadMem (0x40012440, 0x0004 Bytes, ...) -- CPU is running -- CPU_ReadMem(4 bytes @ 0x40012440) - Data: 00 00 00 00  returns 0x00 (0001ms, 0721ms total)
T2044 004:049 JLINK_ReadMem (0x400124B4, 0x0004 Bytes, ...) -- CPU is running -- CPU_ReadMem(4 bytes @ 0x400124B4) - Data: 00 00 00 00  returns 0x00 (0001ms, 0722ms total)
T2044 004:050 JLINK_ReadMem (0x40012708, 0x0004 Bytes, ...) -- CPU is running -- CPU_ReadMem(4 bytes @ 0x40012708) - Data: 00 00 00 00  returns 0x00 (0001ms, 0723ms total)
T2044 004:051 JLINK_ReadMem (0x40004800, 0x000C Bytes, ...) -- CPU is running -- CPU_ReadMem(12 bytes @ 0x40004800) - Data: 00 00 00 00 00 00 00 00 00 00 00 00  returns 0x00 (0001ms, 0724ms total)
T2044 004:052 JLINK_ReadMem (0x4000480C, 0x0004 Bytes, ...) -- CPU is running -- CPU_ReadMem(4 bytes @ 0x4000480C) - Data: 00 00 00 00  returns 0x00 (0000ms, 0724ms total)
T2044 004:052 JLINK_ReadMem (0x4000481C, 0x0004 Bytes, ...) -- CPU is running -- CPU_ReadMem(4 bytes @ 0x4000481C) - Data: C0 00 00 00  returns 0x00 (0001ms, 0725ms total)
T2044 004:053 JLINK_ReadMem (0x40004824, 0x0004 Bytes, ...) -- CPU is running -- CPU_ReadMem(4 bytes @ 0x40004824) - Data: 00 00 00 00  returns 0x00 (0001ms, 0726ms total)
